Using: /import/programs/synopsys/hspice/current/hspice/linux64/hspice inv_1.sp
 ****** PrimeSim HSPICE -- R-2020.12-SP2 linux64 (May 24 2021 7074677) ******
  Copyright (c) 1986 - 2022 by Synopsys, Inc. All Rights Reserved.
  This software and the associated documentation are proprietary
  to Synopsys, Inc. This software may only be used in accordance
  with the terms and conditions of a written license agreement with
  Synopsys, Inc. All other use, reproduction, or distribution of
  this software is strictly prohibited.
  Input File: inv_1.sp                                                          
  Command line options: /import/programs/synopsys/hspice/current/hspice/linux64/hspice inv_1.sp
  Start time: Fri Aug  5 14:31:32 2022
 lic:  
 lic: FLEXlm: SDK_12.9.5 
 lic: USER:   jstine               HOSTNAME: yukari.ecen.okstate.edu 
 lic: HOSTID: "bc97e10bfbb1"       PID:      64690 
 lic: Using FLEXlm license file: 
 lic: 27020@trelaina.ecen.okstate.edu 
 lic: Checkout 1 hspice 
 lic: License/Maintenance for hspice will expire on 27-jan-2023/2021.09 
 lic: 1(in_use)/50(total) FLOATING license(s) on SERVER 27020@trelaina.ecen.okstate.edu 
 lic:   
  **info**  the obsolete option acct is ignored
  **info**  the obsolete option acct is ignored
 scientific notation:
 a=10**-18  f=10**-15  p=10**-12  n=10**-9  u=10**-6
 m=10**-3   k=10**3    x=10**6    g=10**9 


 circuit parameter definitions
  parameter          =  value 

     0:supply                                                  =   3.3000       
     0:nmos_6p0_nat_noic                                       =  10.0000x      
     0:nmos_6p0_nat_noib                                       = 2.500e+25      
     0:nmos_6p0_nat_noia                                       = 5.500e+40      
     0:pmos_6p0_noic                                           =   1.0499g      
     0:pmos_6p0_noib                                           = 1.594e+25      
     0:pmos_6p0_noia                                           = 6.000e+40      
     0:nmos_6p0_noic                                           = 500.0000x      
     0:nmos_6p0_nat_u0                                         =  70.1020m      
     0:nmos_6p0_cgdo                                           =   1.0000       
     0:nmos_6p0_cgso                                           =   1.0000       
     0:nmos_6p0_tox                                            =   0.           
     0:nmos_6p0_xw                                             =   0.           
     0:nmos_6p0_xl                                             =   0.           
     0:nmos_6p0_vth0                                           =   0.           
     0:nmos_6p0_vsat                                           =   1.0000       
     0:rsh_pplus_u_m                                           = 185.0000       
     0:rsh_nplus_u_m                                           =  60.0000       
     0:sw_stat_mismatch                                        =   1.0000       
     0:sw_stat_global                                          =   1.0000       
     0:mc_skew                                                 =   3.0000       
     0:res_mc_skew                                             =   3.0000       
     0:cap_mc_skew                                             =   3.0000       
     0:fnoicor                                                 =   0.           
     0:nmos_6p0_nat_vth0                                       = -39.0000m      
     0:nmos_6p0_nat_xl                                         =   0.           
     0:nmos_6p0_nat_xw                                         =   0.           
     0:nmos_6p0_nat_tox                                        =  15.2000n      
     0:nmos_6p0_nat_cgso                                       = 100.0000p      
     0:nmos_6p0_nat_cgdo                                       = 100.0000p      
     0:pmos_6p0_dvth0                                          =   0.           
     0:pmos_6p0_dxl                                            =   0.           
     0:pmos_6p0_dxw                                            =   0.           
     0:pmos_6p0_dtox                                           =   0.           
     0:pmos_6p0_dcgdo                                          =   1.0000       
     0:pmos_6p0_dcgso                                          =   1.0000       
     0:nmos_3p3_noia                                           = 3.200e+41      
     0:nmos_3p3_noib                                           = 1.200e+20      
     0:nmos_3p3_noic                                           = 600.0000x      
     0:pmos_3p3_noia                                           = 3.200e+41      
     0:pmos_3p3_noib                                           = 1.800e+20      
     0:pmos_3p3_noic                                           =   3.0000g      
     0:nmos_6p0_noia                                           = 1.998e+41      
     0:nmos_6p0_noib                                           = 1.000e+25      




 constants  - tnom         kt           vt           gapsi        ni
            298.15000    4.1163e-21    25.69184m     1.11562    1.2565e+16 
  **info** (inv_1.sp:20) DC voltage reset to initial transient source value in source 0:vin. new dc=0.0000D+00
  **warning** (inv_1.sp:37) Unable to find referenced node out; Output variable ignored. Specify a valid node.
1****** PrimeSim HSPICE -- R-2020.12-SP2 linux64 (May 24 2021 7074677) ******
 ******  
 *

 ****** circuit element summary tnom=  25.000 temp=  25.000 ******


 **** independent sources

     name         node1        node2      dc volt    ac mag    ac phase    type
  vdd  vdd               0                    3.3000     0.         0.      dc   
  vin  a                 0                    0.         0.         0.      pulse
             initial value     0.     
             pulsed value.     3.3000 
             delay time...     0.     
             risetime.....    25.0000p
             falltime.....    25.0000p
             width........   500.0000p
             period.......     1.0000n

  
 ******  
 *

 ****** element node table

  **warning** the following singular supplies were terminated to 1 meg resistor 
          supply       node1            node2
(inv_1.sp:20)vin                     0:a                defined in subckt 0                     0:0                defined in subckt 0               
(inv_1.sp:19)vdd                     0:vdd              defined in subckt 0                     0:0                defined in subckt 0               
                            
 0                vdd vin   
 a                vin       
 vdd              vdd       
 *****************************************************************
 ******  option summary
 ******
 runlvl  = 3         bypass  = 2.0000    
 ******  
 *

 ****** temperature-adjusted values tnom=  25.000 temp=  25.000 ******

 constants  - temp             kt               vt               gapsi            ni
            298.1500         4.116e-21         25.6918m          1.1156         1.256e+16      

 *** resistors
    name        eff val        eff val(ac)

  **warning** no probe statements specified, thus .sw# omitted
 **info** dc convergence successful at Newton-Raphson method 
 ******  
 *

 ****** operating point information tnom=  25.000 temp=  25.000 ******
 ****** operating point status is all       simulation time is     0.     
    node    =voltage      node    =voltage

 +0:a       =   0.      0:vdd     =   3.3000 


 maximum nodal capacitance=    0.00             on node     0:0               

    nodal  capacitance table 

    node    =    cap      node    =    cap

 +0:a       =   0.      0:vdd     =   0.     

 

 **** voltage sources

 subckt                        
 element  0:vdd      0:vin     
  volts      3.3000     0.     
  current   -3.3000u    0.     
  power     10.8900u    0.     

     total voltage source power dissipation=   10.8900u       watts



          ***** job concluded
 ******  
 *

 ****** job statistics summary tnom=  25.000 temp=  25.000 ******
  
 ******  Machine Information  ******
 CPU:
 model name	: AMD EPYC 74F3 24-Core Processor
 cpu MHz	: 3193.722
 CPU(s)		: 96
  
 OS:
 Linux version 3.10.0-1160.71.1.el7.x86_64 (mockbuild@x86-vm-37.build.eng.bos.redhat.com) (gcc version 4.8.5 20150623 (Red Hat 4.8.5-44) (GCC) ) #1 SMP Wed Jun 15 08:55:08 UTC 2022

 System loadavg : 0.03 0.08 0.06 2/2174 64693


  ******  PrimeSim HSPICE Threads Information  ******

  Command Line Threads Count :     1
  Available CPU Count        :    96
  Actual Threads Count       :     1


  ******  Circuit Statistics  ******
  # nodes       =       3 # elements   =       4
  # resistors   =       2 # capacitors =       0 # inductors   =       0
  # mutual_inds =       0 # vccs       =       0 # vcvs        =       0
  # cccs        =       0 # ccvs       =       0 # volt_srcs   =       2
  # curr_srcs   =       0 # diodes     =       0 # bjts        =       0
  # jfets       =       0 # mosfets    =       0 # U elements  =       0
  # T elements  =       0 # W elements =       0 # B elements  =       0
  # S elements  =       0 # P elements =       0 # va device   =       0
  # vector_srcs =       0 # N elements =       0


  ******  Runtime Statistics (seconds)  ******

  analysis           time    # points   tot. iter  conv.iter
  op point           0.00           1           1
  dc sweep           0.00          51          51
  transient          0.00         101         122          61 rev=         0
  readin             0.02
  errchk             0.00
  setup              0.00
  output             0.00


           peak memory used        621.39 megabytes
           total cpu time            0.02 seconds
           total elapsed time        0.07 seconds
           job started at     14:31:32 08/05/2022
           job ended   at     14:31:32 08/05/2022

>info:         ***** hspice job concluded
           job total runtime         0.07 seconds


 lic: Release hspice token(s) 
 lic: total license checkout elapse time:        0.04(s)
